           * e:\esim\hackathon_charge_pump\hackathon_charge_pump.cir
           Transient Analysis  Sat Nov 02 01:25:41  2024
--------------------------------------------------------------------------------
Index   time            v1#branch       v2#branch       v3#branch       
--------------------------------------------------------------------------------
0	0.000000e+000	-1.57494e-011	0.000000e+000	0.000000e+000	
1	1.000000e-007	-1.57494e-011	-5.30558e-019	-3.02072e-019	
2	2.000000e-007	-1.57494e-011	3.459476e-019	1.969604e-019	
3	4.000000e-007	-1.57494e-011	-3.38391e-019	-1.92651e-019	
4	8.000000e-007	-1.57494e-011	3.823936e-019	2.177044e-019	
5	1.600000e-006	-1.57494e-011	-3.26360e-019	-1.85801e-019	
6	3.200000e-006	-1.57494e-011	3.021126e-019	1.719962e-019	
7	6.400000e-006	-1.57494e-011	-2.97588e-019	-1.69420e-019	
8	1.280000e-005	-1.57494e-011	2.964920e-019	1.687961e-019	
9	2.560000e-005	-1.57494e-011	-2.96037e-019	-1.68537e-019	
10	4.560000e-005	-1.57494e-011	2.959778e-019	1.685036e-019	
11	6.560000e-005	-1.57494e-011	-2.95953e-019	-1.68490e-019	
12	8.560000e-005	-1.57494e-011	2.959263e-019	1.684744e-019	
13	1.056000e-004	-1.57494e-011	-2.95899e-019	-1.68459e-019	
14	1.256000e-004	-1.57494e-011	2.958719e-019	1.684434e-019	
15	1.456000e-004	-1.57494e-011	-2.95845e-019	-1.68428e-019	
16	1.656000e-004	-1.57494e-011	2.958181e-019	1.684127e-019	
17	1.856000e-004	-1.57494e-011	-2.95791e-019	-1.68397e-019	
18	2.056000e-004	-1.57494e-011	2.957634e-019	1.683817e-019	
19	2.256000e-004	-1.57494e-011	-2.95736e-019	-1.68366e-019	
20	2.456000e-004	-1.57494e-011	2.957096e-019	1.683511e-019	
21	2.656000e-004	-1.57494e-011	-2.95682e-019	-1.68336e-019	
22	2.856000e-004	-1.57494e-011	2.956552e-019	1.683201e-019	
23	3.056000e-004	-1.57494e-011	-2.95628e-019	-1.68305e-019	
24	3.256000e-004	-1.57494e-011	2.956013e-019	1.682894e-019	
25	3.456000e-004	-1.57494e-011	-2.95574e-019	-1.68274e-019	
26	3.656000e-004	-1.57494e-011	2.955472e-019	1.682584e-019	
27	3.856000e-004	-1.57494e-011	-2.95520e-019	-1.68243e-019	
28	4.056000e-004	-1.57494e-011	2.954934e-019	1.682277e-019	
29	4.256000e-004	-1.57494e-011	-2.95466e-019	-1.68212e-019	
30	4.456000e-004	-1.57494e-011	2.954390e-019	1.681967e-019	
31	4.656000e-004	-1.57494e-011	-2.95412e-019	-1.68181e-019	
32	4.856000e-004	-1.57494e-011	2.953851e-019	1.681661e-019	
33	5.000000e-004	-1.57494e-011	-2.95420e-019	-1.68186e-019	
34	5.000000e-004	1.691048e-006	1.336593e-005	-2.31286e-005	
35	5.000000e-004	-1.84494e-006	1.467005e-005	-5.45979e-005	
36	5.000001e-004	-1.75770e-004	1.565574e-005	-4.23973e-005	
37	5.000001e-004	-2.64841e-004	2.223825e-005	-5.58570e-005	
38	5.000001e-004	-2.83599e-004	-1.01698e-006	-9.97658e-007	
39	5.000001e-004	-3.01652e-004	-2.06186e-007	-1.77097e-007	
40	5.000001e-004	-3.06500e-004	4.069900e-008	1.810676e-008	
41	5.000002e-004	-3.05627e-004	-2.54272e-008	-3.44834e-009	
42	5.000003e-004	-3.06067e-004	2.106496e-008	-7.33529e-010	
43	5.000005e-004	-3.05757e-004	-1.94879e-008	2.244193e-009	
44	5.000008e-004	-3.06017e-004	1.881579e-008	-2.88719e-009	
45	5.000016e-004	-3.05779e-004	-1.85052e-008	3.184442e-009	
46	5.000031e-004	-3.06007e-004	1.835580e-008	-3.32735e-009	
47	5.000060e-004	-3.05784e-004	-1.82825e-008	3.397443e-009	
48	5.000119e-004	-3.06005e-004	1.824625e-008	-3.43215e-009	
49	5.000238e-004	-3.05785e-004	-1.82282e-008	3.449416e-009	
50	5.000475e-004	-3.06004e-004	1.821919e-008	-3.45803e-009	
51	5.000949e-004	-3.05785e-004	-1.82147e-008	3.462330e-009	
52	5.001896e-004	-3.06004e-004	1.821244e-008	-3.46448e-009	
53	5.003791e-004	-3.05785e-004	-1.82113e-008	3.465554e-009	
54	5.007581e-004	-3.06004e-004	1.821076e-008	-3.46610e-009	

Index   time            v1#branch       v2#branch       v3#branch       
--------------------------------------------------------------------------------
55	5.015161e-004	-3.05785e-004	-1.82105e-008	3.466360e-009	
56	5.030322e-004	-3.06003e-004	1.821034e-008	-3.46650e-009	
57	5.060643e-004	-3.05784e-004	-1.82103e-008	3.466561e-009	
58	5.121284e-004	-3.06000e-004	1.821023e-008	-3.46660e-009	
59	5.242567e-004	-3.05778e-004	-1.82102e-008	3.466611e-009	
60	5.442567e-004	-3.05990e-004	1.821020e-008	-3.46663e-009	
61	5.642567e-004	-3.05765e-004	-1.82102e-008	3.466632e-009	
62	5.842567e-004	-3.05978e-004	1.821018e-008	-3.46665e-009	
63	6.000001e-004	-3.05754e-004	-1.82102e-008	3.466655e-009	
64	6.000001e-004	-3.00545e-004	-2.12808e-005	4.868881e-005	
65	6.000001e-004	-2.30023e-004	-1.38401e-005	5.042996e-005	
66	6.000002e-004	-2.88328e-005	-1.59948e-005	4.703580e-005	
67	6.000002e-004	-4.92265e-006	-1.09006e-005	2.068747e-005	
68	6.000002e-004	1.656421e-007	-7.88869e-007	-4.91477e-007	
69	6.000002e-004	1.538906e-007	-6.66398e-007	-4.14343e-007	
70	6.000002e-004	1.117805e-007	-4.39136e-007	-2.55558e-007	
71	6.000002e-004	3.863092e-008	-1.57129e-007	-9.34263e-008	
72	6.000002e-004	5.661063e-009	-1.22194e-008	-2.91536e-009	
73	6.000002e-004	1.103069e-009	-4.21952e-009	-2.37744e-009	
74	6.000002e-004	9.832740e-010	-3.76308e-009	-2.11596e-009	
75	6.000002e-004	7.204787e-010	-2.76973e-009	-1.55485e-009	
76	6.000002e-004	1.729744e-009	-6.62373e-009	-3.74596e-009	
77	6.000002e-004	1.262346e-009	-4.77820e-009	-2.67138e-009	
78	6.000002e-004	3.527735e-010	-1.42717e-009	-8.17575e-010	
79	6.000002e-004	3.256131e-010	-1.25387e-009	-6.91811e-010	
80	6.000002e-004	1.283479e-010	-5.79852e-010	-3.39859e-010	
81	6.000002e-004	8.033930e-011	-3.64302e-010	-2.05116e-010	
82	6.000002e-004	-1.13129e-010	3.658429e-010	2.063241e-010	
83	6.000002e-004	-3.25428e-009	1.238547e-008	7.044906e-009	
84	6.000002e-004	-1.94498e-009	7.050326e-009	3.889129e-009	
85	6.000002e-004	-2.37788e-010	9.852456e-010	5.947683e-010	
86	6.000002e-004	-3.87107e-010	1.257337e-009	6.735092e-010	
87	6.000002e-004	5.864726e-011	-1.48480e-010	-5.32959e-011	
88	6.000002e-004	2.853330e-010	-1.27052e-009	-7.44665e-010	
89	6.000002e-004	-5.78490e-009	2.208279e-008	1.256552e-008	
90	6.000002e-004	-4.66888e-009	1.720696e-008	9.572186e-009	
91	6.000002e-004	-7.55367e-010	2.977438e-009	1.714383e-009	
92	6.000002e-004	3.132029e-010	-1.44006e-009	-8.50479e-010	
93	6.000002e-004	5.062510e-010	-1.77911e-009	-9.65386e-010	
94	6.000003e-004	3.778134e-010	-1.67444e-009	-9.76837e-010	
95	6.000003e-004	1.214092e-010	-5.19434e-010	-2.92877e-010	
96	6.000003e-004	-2.15772e-010	7.621711e-010	4.333362e-010	
97	6.000003e-004	-6.86080e-010	2.530356e-009	1.426799e-009	
98	6.000003e-004	-9.89012e-010	3.685352e-009	2.081920e-009	
99	6.000003e-004	-1.25306e-008	4.926540e-008	2.841606e-008	
100	6.000003e-004	-8.77990e-009	3.146155e-008	1.757073e-008	
101	6.000003e-004	-4.31301e-009	1.679381e-008	9.171059e-009	
102	6.000003e-004	-8.77723e-009	3.403271e-008	1.940367e-008	
103	6.000003e-004	2.269177e-009	-1.10564e-008	-6.81428e-009	
104	6.000003e-004	7.331137e-007	-2.99235e-006	-1.62553e-006	
105	6.000003e-004	5.113718e-007	-2.18162e-006	-1.23063e-006	
106	6.000003e-004	-5.14009e-007	2.018141e-006	1.048042e-006	
107	6.000003e-004	-3.61190e-007	1.637122e-006	9.577253e-007	
108	6.000003e-004	-1.14399e-007	4.784758e-007	3.042552e-007	
109	6.000003e-004	6.359777e-008	-3.52934e-007	-2.05413e-007	
110	6.000003e-004	-2.60335e-008	1.332120e-007	6.552087e-008	
111	6.000003e-004	2.144517e-009	-2.43628e-008	-8.15210e-009	
112	6.000003e-004	5.404782e-009	-1.33055e-008	-1.31086e-008	

Index   time            v1#branch       v2#branch       v3#branch       
--------------------------------------------------------------------------------
113	6.000003e-004	2.869443e-009	-1.51540e-008	-3.42716e-009	
114	6.000003e-004	-7.66271e-010	6.219295e-009	-1.19757e-009	
115	6.000003e-004	4.066018e-009	-1.84152e-008	-5.87047e-009	
116	6.000003e-004	-3.02817e-009	1.422972e-008	3.624417e-009	
117	6.000003e-004	-2.29629e-011	1.807960e-010	2.609378e-012	
118	6.000003e-004	-9.25170e-012	-1.73014e-010	-3.81876e-012	
119	6.000003e-004	1.102140e-009	-4.27797e-009	-2.42512e-009	
120	6.000003e-004	1.474984e-009	-5.58834e-009	-3.14183e-009	
121	6.000003e-004	-3.04960e-010	1.247589e-009	7.654090e-010	
122	6.000003e-004	2.716828e-010	-1.25228e-009	-7.53247e-010	
123	6.000003e-004	2.458338e-009	-9.29043e-009	-5.24158e-009	
124	6.000003e-004	1.155326e-009	-4.42316e-009	-2.46295e-009	
125	6.000003e-004	3.266011e-010	-1.27683e-009	-7.39441e-010	
126	6.000003e-004	2.184681e-010	-8.99911e-010	-4.85612e-010	
127	6.000003e-004	9.401081e-011	-4.00647e-010	-2.45950e-010	
128	6.000003e-004	-4.39335e-011	8.933339e-011	7.078156e-011	
129	6.000003e-004	1.899412e-012	-5.37877e-011	-5.07555e-011	
130	6.000003e-004	-4.94560e-011	1.251318e-010	7.041377e-011	
131	6.000003e-004	-3.22554e-013	-6.03906e-011	-3.40163e-011	
132	6.000003e-004	1.197892e-011	-1.06391e-010	-5.98431e-011	
133	6.000003e-004	-2.53463e-011	3.395731e-011	1.908943e-011	
134	6.000004e-004	-1.37923e-011	-9.26572e-012	-5.19601e-012	
135	6.000005e-004	-1.70427e-011	2.660285e-012	1.478812e-012	
136	6.000007e-004	-1.59133e-011	-1.27216e-012	-6.98099e-013	
137	6.000011e-004	-1.65093e-011	6.505304e-013	3.482541e-013	
138	6.000020e-004	-1.61589e-011	-3.46005e-013	-1.76904e-013	
139	6.000036e-004	-1.63886e-011	1.955574e-013	9.224178e-014	
140	6.000070e-004	-1.62174e-011	-1.25824e-013	-5.30036e-014	
141	6.000137e-004	-1.63606e-011	9.002417e-014	3.285814e-014	
142	6.000271e-004	-1.62317e-011	-7.19560e-014	-2.26914e-014	
143	6.000540e-004	-1.63534e-011	6.284899e-014	1.756657e-014	
144	6.001077e-004	-1.62353e-011	-5.83152e-014	-1.50154e-014	
145	6.002150e-004	-1.63516e-011	5.605363e-014	1.374280e-014	
146	6.004298e-004	-1.62362e-011	-5.49221e-014	-1.31061e-014	
147	6.008593e-004	-1.63511e-011	5.435629e-014	1.278770e-014	
148	6.017183e-004	-1.62364e-011	-5.40733e-014	-1.26285e-014	
149	6.034363e-004	-1.63510e-011	5.393190e-014	1.254890e-014	
150	6.068722e-004	-1.62365e-011	-5.38612e-014	-1.25091e-014	
151	6.137442e-004	-1.63510e-011	5.382580e-014	1.248920e-014	
152	6.274881e-004	-1.62365e-011	-5.38081e-014	-1.24792e-014	
153	6.474881e-004	-1.63510e-011	5.379597e-014	1.247241e-014	
154	6.674881e-004	-1.62365e-011	-5.37838e-014	-1.24656e-014	
155	6.874881e-004	-1.63510e-011	5.377166e-014	1.245873e-014	
156	7.074881e-004	-1.62365e-011	-5.37595e-014	-1.24519e-014	
157	7.274881e-004	-1.63510e-011	5.374736e-014	1.244506e-014	
158	7.474881e-004	-1.62365e-011	-5.37352e-014	-1.24382e-014	
159	7.674881e-004	-1.63510e-011	5.372306e-014	1.243138e-014	
160	7.874881e-004	-1.62365e-011	-5.37109e-014	-1.24245e-014	
161	8.074881e-004	-1.63509e-011	5.369875e-014	1.241771e-014	
162	8.274881e-004	-1.62365e-011	-5.36866e-014	-1.24109e-014	
163	8.474881e-004	-1.63509e-011	5.367445e-014	1.240403e-014	
164	8.674881e-004	-1.62365e-011	-5.36623e-014	-1.23972e-014	
165	8.874881e-004	-1.63509e-011	5.365015e-014	1.239036e-014	
166	9.074881e-004	-1.62365e-011	-5.36380e-014	-1.23835e-014	
167	9.274881e-004	-1.63509e-011	5.362585e-014	1.237668e-014	
168	9.474881e-004	-1.62365e-011	-5.36137e-014	-1.23698e-014	
169	9.674881e-004	-1.63509e-011	5.360154e-014	1.236300e-014	
170	9.874881e-004	-1.62365e-011	-5.35894e-014	-1.23562e-014	

Index   time            v1#branch       v2#branch       v3#branch       
--------------------------------------------------------------------------------
171	1.000000e-003	-1.63509e-011	5.356997e-014	1.234524e-014	

           * e:\esim\hackathon_charge_pump\hackathon_charge_pump.cir
           Transient Analysis  Sat Nov 02 01:25:41  2024
--------------------------------------------------------------------------------
Index   time            v4#branch       v5#branch       
--------------------------------------------------------------------------------
0	0.000000e+000	0.000000e+000	0.000000e+000	
1	1.000000e-007	-3.54940e-019	-2.62628e-018	
2	2.000000e-007	2.314401e-019	1.693949e-018	
3	4.000000e-007	-2.26381e-019	-1.65675e-018	
4	8.000000e-007	2.557994e-019	1.874588e-018	
5	1.600000e-006	-2.18313e-019	-1.59721e-018	
6	3.200000e-006	2.020919e-019	1.477186e-018	
7	6.400000e-006	-1.99065e-019	-1.45543e-018	
8	1.280000e-005	1.983324e-019	1.449362e-018	
9	2.560000e-005	-1.98028e-019	-1.44711e-018	
10	4.560000e-005	1.979891e-019	1.446818e-018	
11	6.560000e-005	-1.97973e-019	-1.44670e-018	
12	8.560000e-005	1.979547e-019	1.446563e-018	
13	1.056000e-004	-1.97936e-019	-1.44643e-018	
14	1.256000e-004	1.979185e-019	1.446293e-018	
15	1.456000e-004	-1.97901e-019	-1.44616e-018	
16	1.656000e-004	1.978826e-019	1.446027e-018	
17	1.856000e-004	-1.97865e-019	-1.44589e-018	
18	2.056000e-004	1.978464e-019	1.445757e-018	
19	2.256000e-004	-1.97829e-019	-1.44562e-018	
20	2.456000e-004	1.978106e-019	1.445490e-018	
21	2.656000e-004	-1.97793e-019	-1.44535e-018	
22	2.856000e-004	1.977744e-019	1.445220e-018	
23	3.056000e-004	-1.97757e-019	-1.44509e-018	
24	3.256000e-004	1.977387e-019	1.444954e-018	
25	3.456000e-004	-1.97721e-019	-1.44482e-018	
26	3.656000e-004	1.977024e-019	1.444684e-018	
27	3.856000e-004	-1.97685e-019	-1.44455e-018	
28	4.056000e-004	1.976667e-019	1.444418e-018	
29	4.256000e-004	-1.97649e-019	-1.44428e-018	
30	4.456000e-004	1.976304e-019	1.444148e-018	
31	4.656000e-004	-1.97613e-019	-1.44401e-018	
32	4.856000e-004	1.975947e-019	1.443882e-018	
33	5.000000e-004	-1.97619e-019	-1.44406e-018	
34	5.000000e-004	-2.43695e-005	5.506144e-005	
35	5.000000e-004	-5.00546e-005	6.966742e-005	
36	5.000001e-004	-4.32311e-005	4.940481e-005	
37	5.000001e-004	-3.97873e-005	2.306364e-005	
38	5.000001e-004	-1.39596e-005	-1.01318e-006	
39	5.000001e-004	-2.63293e-006	-2.13150e-007	
40	5.000001e-004	3.702945e-007	4.620340e-008	
41	5.000002e-004	-1.61393e-007	-3.07637e-008	
42	5.000003e-004	1.018087e-007	2.635743e-008	
43	5.000005e-004	-8.02461e-008	-2.47584e-008	
44	5.000008e-004	7.113218e-008	2.408785e-008	
45	5.000016e-004	-6.68826e-008	-2.37722e-008	
46	5.000031e-004	6.485226e-008	2.362227e-008	
47	5.000060e-004	-6.38510e-008	-2.35479e-008	
48	5.000119e-004	6.335782e-008	2.351150e-008	
49	5.000238e-004	-6.31111e-008	-2.34932e-008	
50	5.000475e-004	6.298873e-008	2.348415e-008	
51	5.000949e-004	-6.29273e-008	-2.34796e-008	
52	5.001896e-004	6.289673e-008	2.347733e-008	
53	5.003791e-004	-6.28814e-008	-2.34762e-008	
54	5.007581e-004	6.287375e-008	2.347562e-008	

Index   time            v4#branch       v5#branch       
--------------------------------------------------------------------------------
55	5.015161e-004	-6.28699e-008	-2.34753e-008	
56	5.030322e-004	6.286801e-008	2.347520e-008	
57	5.060643e-004	-6.28670e-008	-2.34751e-008	
58	5.121284e-004	6.286657e-008	2.347509e-008	
59	5.242567e-004	-6.28663e-008	-2.34751e-008	
60	5.442567e-004	6.286619e-008	2.347506e-008	
61	5.642567e-004	-6.28660e-008	-2.34751e-008	
62	5.842567e-004	6.286590e-008	2.347504e-008	
63	6.000001e-004	-6.28657e-008	-2.34750e-008	
64	6.000001e-004	3.298706e-005	-2.43582e-005	
65	6.000001e-004	6.486465e-005	-6.76068e-005	
66	6.000002e-004	3.508468e-005	-4.76485e-005	
67	6.000002e-004	3.266052e-005	-6.79211e-005	
68	6.000002e-004	-5.56072e-007	-4.43807e-006	
69	6.000002e-004	-4.72369e-007	-3.58619e-006	
70	6.000002e-004	-2.96975e-007	-2.21743e-006	
71	6.000002e-004	-1.07896e-007	-8.11435e-007	
72	6.000002e-004	-4.84822e-009	-2.59211e-008	
73	6.000002e-004	-2.78513e-009	-2.06637e-008	
74	6.000002e-004	-2.47306e-009	-1.84234e-008	
75	6.000002e-004	-1.80993e-009	-1.35594e-008	
76	6.000002e-004	-4.46862e-009	-3.24060e-008	
77	6.000002e-004	-3.06341e-009	-2.34051e-008	
78	6.000002e-004	-1.01982e-009	-6.96515e-009	
79	6.000002e-004	-7.54653e-010	-6.15537e-009	
80	6.000002e-004	-4.56193e-010	-2.81719e-009	
81	6.000002e-004	-2.41272e-010	-1.78279e-009	
82	6.000002e-004	2.440620e-010	1.790075e-009	
83	6.000002e-004	8.586484e-009	6.051731e-008	
84	6.000002e-004	4.223350e-009	3.465259e-008	
85	6.000002e-004	8.978290e-010	4.668177e-009	
86	6.000002e-004	6.145129e-010	6.308969e-009	
87	6.000002e-004	9.955330e-011	-8.83496e-010	
88	6.000002e-004	-1.03478e-009	-6.05909e-009	
89	6.000002e-004	1.533286e-008	1.078931e-007	
90	6.000002e-004	1.073692e-008	8.446803e-008	
91	6.000002e-004	2.231399e-009	1.433322e-008	
92	6.000002e-004	-1.22474e-009	-6.80030e-009	
93	6.000002e-004	-9.22612e-010	-8.95570e-009	
94	6.000003e-004	-1.35303e-009	-7.94446e-009	
95	6.000003e-004	-3.45731e-010	-2.54310e-009	
96	6.000003e-004	5.269406e-010	3.725562e-009	
97	6.000003e-004	1.686306e-009	1.238195e-008	
98	6.000003e-004	2.477280e-009	1.802695e-008	
99	6.000003e-004	3.648369e-008	2.394538e-007	
100	6.000003e-004	1.934311e-008	1.565719e-007	
101	6.000003e-004	1.032712e-008	8.006857e-008	
102	6.000003e-004	2.406019e-008	1.654439e-007	
103	6.000003e-004	-1.10406e-008	-5.14077e-008	
104	6.000003e-004	-2.10357e-006	-1.44258e-005	
105	6.000003e-004	-1.58552e-006	-1.02326e-005	
106	6.000003e-004	1.323040e-006	9.926221e-006	
107	6.000003e-004	1.211421e-006	7.402061e-006	
108	6.000003e-004	4.996343e-007	2.353653e-006	
109	6.000003e-004	-2.96824e-007	-1.50148e-006	
110	6.000003e-004	4.143951e-008	5.410549e-007	
111	6.000003e-004	2.123482e-008	-6.73023e-008	
112	6.000003e-004	-4.85370e-008	-9.66597e-008	

Index   time            v4#branch       v5#branch       
--------------------------------------------------------------------------------
113	6.000003e-004	2.780610e-008	-5.12739e-008	
114	6.000003e-004	-3.18590e-008	1.124688e-008	
115	6.000003e-004	2.282567e-008	-7.26376e-008	
116	6.000003e-004	-2.50552e-008	5.296086e-008	
117	6.000003e-004	-3.71986e-010	1.072989e-010	
118	6.000003e-004	3.592883e-010	-1.11719e-010	
119	6.000003e-004	-2.93007e-009	-2.08737e-008	
120	6.000003e-004	-3.66217e-009	-2.74071e-008	
121	6.000003e-004	1.166225e-009	6.018830e-009	
122	6.000003e-004	-1.11685e-009	-5.97445e-009	
123	6.000003e-004	-6.16639e-009	-4.55881e-008	
124	6.000003e-004	-2.82662e-009	-2.15366e-008	
125	6.000003e-004	-9.15022e-010	-6.35398e-009	
126	6.000003e-004	-5.23723e-010	-4.29883e-009	
127	6.000003e-004	-3.34840e-010	-2.06373e-009	
128	6.000003e-004	1.292701e-010	5.400823e-010	
129	6.000003e-004	-1.05732e-010	-3.65939e-010	
130	6.000003e-004	8.281131e-011	6.119713e-010	
131	6.000003e-004	-4.01849e-011	-2.95193e-010	
132	6.000003e-004	-7.01191e-011	-5.20800e-010	
133	6.000003e-004	2.226045e-011	1.679274e-010	
134	6.000004e-004	-5.93985e-012	-4.78871e-011	
135	6.000005e-004	1.572897e-012	1.557297e-011	
136	6.000007e-004	-6.55562e-013	-8.93458e-012	
137	6.000011e-004	2.445599e-013	5.857917e-012	
138	6.000020e-004	-4.32382e-014	-4.39954e-012	
139	6.000036e-004	-5.62305e-014	3.655056e-012	
140	6.000070e-004	1.023324e-013	-3.32133e-012	
141	6.000137e-004	-1.26001e-013	3.144364e-012	
142	6.000271e-004	1.379467e-013	-3.05791e-012	
143	6.000540e-004	-1.43968e-013	3.012891e-012	
144	6.001077e-004	1.469653e-013	-2.99120e-012	
145	6.002150e-004	-1.48461e-013	2.980021e-012	
146	6.004298e-004	1.492086e-013	-2.97461e-012	
147	6.008593e-004	-1.49583e-013	2.971811e-012	
148	6.017183e-004	1.497698e-013	-2.97046e-012	
149	6.034363e-004	-1.49863e-013	2.969758e-012	
150	6.068722e-004	1.499100e-013	-2.96942e-012	
151	6.137442e-004	-1.49933e-013	2.969244e-012	
152	6.274881e-004	1.499451e-013	-2.96916e-012	
153	6.474881e-004	-1.49953e-013	2.969100e-012	
154	6.674881e-004	1.499612e-013	-2.96904e-012	
155	6.874881e-004	-1.49969e-013	2.968982e-012	
156	7.074881e-004	1.499772e-013	-2.96892e-012	
157	7.274881e-004	-1.49985e-013	2.968863e-012	
158	7.474881e-004	1.499933e-013	-2.96880e-012	
159	7.674881e-004	-1.50001e-013	2.968745e-012	
160	7.874881e-004	1.500094e-013	-2.96869e-012	
161	8.074881e-004	-1.50017e-013	2.968627e-012	
162	8.274881e-004	1.500254e-013	-2.96857e-012	
163	8.474881e-004	-1.50033e-013	2.968509e-012	
164	8.674881e-004	1.500415e-013	-2.96845e-012	
165	8.874881e-004	-1.50050e-013	2.968391e-012	
166	9.074881e-004	1.500576e-013	-2.96833e-012	
167	9.274881e-004	-1.50066e-013	2.968272e-012	
